T30EC 000:937.921   SEGGER J-Link V6.60 Log File
T30EC 000:941.427   DLL Compiled: Dec 16 2019 15:10:44
T30EC 000:941.435   Logging started @ 2020-09-15 01:32
T30EC 000:941.448 JLINK_SetWarnOutHandler(...)
T30EC 000:941.936 - 0.492ms
T30EC 000:942.246 JLINK_OpenEx(...)
T30EC 000:963.553   Firmware: J-Link ARM V8 compiled Nov 28 2014 13:44:46
T30EC 000:969.550   Hardware: V8.00
T30EC 000:969.565   S/N: 4294967295
T30EC 000:969.575   OEM: SEGGER
T30EC 000:969.585   Feature(s): RDI,FlashDL,FlashBP,JFlash,GDB
T30EC 000:972.028   TELNET listener socket opened on port 19021
T30EC 000:972.269   WEBSRV Starting webserver
T30EC 000:972.485   WEBSRV Webserver running on local port 19080
T30EC 000:972.511 - 30.268ms returns "O.K."
T30EC 000:972.532 JLINK_SetErrorOutHandler(...)
T30EC 000:972.539 - 0.010ms
T30EC 000:972.599 JLINK_ExecCommand("ProjectFile = "G:\ethercat\开发板程序\实验7 对象字典 - 副本\USER\JLinkSettings.ini"", ...). 
T30EC 000:999.059   Ref file found at: C:\Keil_v5\ARM\Segger\JLinkDevices.ref
T30EC 001:009.267   XML referenced by ref file: C:\Program Files (x86)\SEGGER\JLink\JLinkDevices.xml
T30EC 001:011.316   C:\Program Files (x86)\SEGGER\JLink\JLinkDevices.xml evaluated successfully.
T30EC 001:114.323 - 141.749ms returns 0x00
T30EC 001:115.963 JLINK_ExecCommand("Device = STM32F407ZG", ...). 
T30EC 001:121.549   Device "STM32F407ZG" selected.
T30EC 001:122.704 - 6.735ms returns 0x00
T30EC 001:122.725 JLINK_ExecCommand("DisableConnectionTimeout", ...). 
T30EC 001:122.739 - 0.007ms returns 0x01
T30EC 001:122.750 JLINK_GetHardwareVersion()
T30EC 001:122.758 - 0.011ms returns 0x13880
T30EC 001:122.780 JLINK_GetDLLVersion()  returns 66000
T30EC 001:122.812 JLINK_GetFirmwareString(...)
T30EC 001:122.819 - 0.010ms
T30EC 001:128.083 JLINK_GetDLLVersion()  returns 66000
T30EC 001:128.139 JLINK_GetCompileDateTime()
T30EC 001:128.149 - 0.029ms
T30EC 001:138.064 JLINK_GetFirmwareString(...)
T30EC 001:138.079 - 0.019ms
T30EC 001:141.678 JLINK_GetHardwareVersion()
T30EC 001:141.692 - 0.017ms returns 0x13880
T30EC 001:153.949 JLINK_TIF_Select(JLINKARM_TIF_JTAG)
T30EC 001:156.498 - 2.557ms returns 0x00
T30EC 001:156.784 JLINK_SetSpeed(20000)
T30EC 001:157.091 - 0.313ms
T30EC 001:157.107 JLINK_GetIdData(pIdData)
T30EC 001:162.839   TotalIRLen = 9, IRPrint = 0x0011
T30EC 001:167.623   JTAG chain detection found 2 devices:
T30EC 001:171.087    #0 Id: 0x4BA00477, IRLen: 04, CoreSight JTAG-DP
T30EC 001:174.561    #1 Id: 0x06413041, IRLen: 05, STM32 Boundary Scan
T30EC 001:190.972   TotalIRLen = 9, IRPrint = 0x0011
T30EC 001:195.334   JTAG chain detection found 2 devices:
T30EC 001:198.766    #0 Id: 0x4BA00477, IRLen: 04, CoreSight JTAG-DP
T30EC 001:201.978    #1 Id: 0x06413041, IRLen: 05, STM32 Boundary Scan
T30EC 001:207.485   Scanning AP map to find all available APs
T30EC 001:214.060   AP[1]: Stopped AP scan as end of AP map has been reached
T30EC 001:217.419   AP[0]: AHB-AP (IDR: 0x24770011)
T30EC 001:220.539   Iterating through AP map to find AHB-AP to use
T30EC 001:228.288   AP[0]: Core found
T30EC 001:231.546   AP[0]: AHB-AP ROM base: 0xE00FF000
T30EC 001:237.351   CPUID register: 0x410FC241. Implementer code: 0x41 (ARM)
T30EC 001:240.340   Found Cortex-M4 r0p1, Little endian.
T30EC 001:241.230    -- Max. mem block: 0x00002408
T30EC 001:241.272    -- CPU_ReadMem(4 bytes @ 0xE000EDF0)
T30EC 001:245.472    -- CPU_WriteMem(4 bytes @ 0xE000EDF0)
T30EC 001:246.058    -- CPU_ReadMem(4 bytes @ 0xE0002000)
T30EC 001:249.963   FPUnit: 6 code (BP) slots and 2 literal slots
T30EC 001:249.988    -- CPU_ReadMem(4 bytes @ 0xE000EDFC)
T30EC 001:250.628    -- CPU_WriteMem(4 bytes @ 0xE000EDFC)
T30EC 001:251.179    -- CPU_ReadMem(4 bytes @ 0xE0001000)
T30EC 001:251.767    -- CPU_WriteMem(4 bytes @ 0xE0001000)
T30EC 001:252.345    -- CPU_ReadMem(4 bytes @ 0xE000ED88)
T30EC 001:252.921    -- CPU_WriteMem(4 bytes @ 0xE000ED88)
T30EC 001:253.464    -- CPU_ReadMem(4 bytes @ 0xE000ED88)
T30EC 001:254.021    -- CPU_WriteMem(4 bytes @ 0xE000ED88)
T30EC 001:257.570   CoreSight components:
T30EC 001:262.206   ROMTbl[0] @ E00FF000
T30EC 001:262.230    -- CPU_ReadMem(16 bytes @ 0xE00FF000)
T30EC 001:263.026    -- CPU_ReadMem(16 bytes @ 0xE000EFF0)
T30EC 001:263.799    -- CPU_ReadMem(16 bytes @ 0xE000EFE0)
T30EC 001:268.853   ROMTbl[0][0]: E000E000, CID: B105E00D, PID: 000BB00C SCS-M7
T30EC 001:268.881    -- CPU_ReadMem(16 bytes @ 0xE0001FF0)
T30EC 001:269.551    -- CPU_ReadMem(16 bytes @ 0xE0001FE0)
T30EC 001:273.390   ROMTbl[0][1]: E0001000, CID: B105E00D, PID: 003BB002 DWT
T30EC 001:273.431    -- CPU_ReadMem(16 bytes @ 0xE0002FF0)
T30EC 001:274.113    -- CPU_ReadMem(16 bytes @ 0xE0002FE0)
T30EC 001:277.667   ROMTbl[0][2]: E0002000, CID: B105E00D, PID: 002BB003 FPB
T30EC 001:277.684    -- CPU_ReadMem(16 bytes @ 0xE0000FF0)
T30EC 001:278.361    -- CPU_ReadMem(16 bytes @ 0xE0000FE0)
T30EC 001:282.446   ROMTbl[0][3]: E0000000, CID: B105E00D, PID: 003BB001 ITM
T30EC 001:282.491    -- CPU_ReadMem(16 bytes @ 0xE00FF010)
T30EC 001:283.360    -- CPU_ReadMem(16 bytes @ 0xE0040FF0)
T30EC 001:284.268    -- CPU_ReadMem(16 bytes @ 0xE0040FE0)
T30EC 001:288.904   ROMTbl[0][4]: E0040000, CID: B105900D, PID: 000BB9A1 TPIU
T30EC 001:288.939    -- CPU_ReadMem(16 bytes @ 0xE0041FF0)
T30EC 001:289.879    -- CPU_ReadMem(16 bytes @ 0xE0041FE0)
T30EC 001:295.798   ROMTbl[0][5]: E0041000, CID: B105900D, PID: 000BB925 ETM
T30EC 001:296.173   pIdData->ScanLen=9
T30EC 001:296.188   
T30EC 001:296.195   pIdData->NumDevices=2
T30EC 001:296.205   
T30EC 001:296.211   pIdData->aId[0]=0x4BA00477
T30EC 001:296.221   
T30EC 001:296.242   pIdData->aIrRead[0]=0
T30EC 001:296.265   
T30EC 001:296.271   pIdData->aScanLen[0]=0
T30EC 001:296.281   
T30EC 001:296.287   pIdData->aScanRead[0]=0
T30EC 001:296.296   
T30EC 001:296.303 - 139.199ms
T30EC 001:296.323 JLINK_JTAG_GetDeviceID(DeviceIndex = 0)
T30EC 001:296.330 - 0.010ms returns 0x4BA00477
T30EC 001:296.354 JLINK_JTAG_GetDeviceInfo(DeviceIndex = 0)
T30EC 001:296.361 - 0.010ms returns 0x00
T30EC 001:296.373 JLINK_JTAG_GetDeviceID(DeviceIndex = 1)
T30EC 001:296.380 - 0.010ms returns 0x6413041
T30EC 001:296.391 JLINK_JTAG_GetDeviceInfo(DeviceIndex = 1)
T30EC 001:296.398 - 0.010ms returns 0x00
T30EC 001:296.411 JLINK_GetDLLVersion()  returns 66000
T30EC 001:296.498 JLINK_CORE_GetFound()
T30EC 001:296.508 - 0.013ms returns 0xE0000FF
T30EC 001:296.519 JLINK_GetDebugInfo(0x100 = JLINKARM_ROM_TABLE_ADDR_INDEX)
T30EC 001:296.527   Value=0xE00FF000
T30EC 001:296.537 - 0.021ms returns 0x00
T30EC 001:300.082 JLINK_ReadMem (0xE00FF000, 0x0020 Bytes, ...)
T30EC 001:300.121    -- CPU_ReadMem(32 bytes @ 0xE00FF000)
T30EC 001:301.376   Data:  03 F0 F0 FF 03 20 F0 FF 03 30 F0 FF 03 10 F0 FF ...
T30EC 001:301.389 - 1.310ms returns 0x00
T30EC 001:301.401 JLINK_ReadMem (0xE000EFF0, 0x0010 Bytes, ...)
T30EC 001:301.412    -- CPU_ReadMem(16 bytes @ 0xE000EFF0)
T30EC 001:302.165   Data:  0D 00 00 00 E0 00 00 00 05 00 00 00 B1 00 00 00
T30EC 001:302.180 - 0.782ms returns 0x00
T30EC 001:302.193 JLINK_ReadMem (0xE000EFD0, 0x0020 Bytes, ...)
T30EC 001:302.205    -- CPU_ReadMem(32 bytes @ 0xE000EFD0)
T30EC 001:303.020   Data:  04 00 00 00 00 00 00 00 00 00 00 00 00 00 00 00 ...
T30EC 001:303.033 - 0.843ms returns 0x00
T30EC 001:303.045 JLINK_ReadMem (0xE0001FF0, 0x0010 Bytes, ...)
T30EC 001:303.056    -- CPU_ReadMem(16 bytes @ 0xE0001FF0)
T30EC 001:303.762   Data:  0D 00 00 00 E0 00 00 00 05 00 00 00 B1 00 00 00
T30EC 001:303.775 - 0.733ms returns 0x00
T30EC 001:303.787 JLINK_ReadMem (0xE0001FD0, 0x0020 Bytes, ...)
T30EC 001:303.798    -- CPU_ReadMem(32 bytes @ 0xE0001FD0)
T30EC 001:304.597   Data:  04 00 00 00 00 00 00 00 00 00 00 00 00 00 00 00 ...
T30EC 001:304.610 - 0.826ms returns 0x00
T30EC 001:304.622 JLINK_ReadMem (0xE0002FF0, 0x0010 Bytes, ...)
T30EC 001:304.632    -- CPU_ReadMem(16 bytes @ 0xE0002FF0)
T30EC 001:305.229   Data:  0D 00 00 00 E0 00 00 00 05 00 00 00 B1 00 00 00
T30EC 001:305.242 - 0.623ms returns 0x00
T30EC 001:305.254 JLINK_ReadMem (0xE0002FD0, 0x0020 Bytes, ...)
T30EC 001:305.264    -- CPU_ReadMem(32 bytes @ 0xE0002FD0)
T30EC 001:306.093   Data:  04 00 00 00 00 00 00 00 00 00 00 00 00 00 00 00 ...
T30EC 001:306.143 - 0.892ms returns 0x00
T30EC 001:306.155 JLINK_ReadMem (0xE0000FF0, 0x0010 Bytes, ...)
T30EC 001:306.166    -- CPU_ReadMem(16 bytes @ 0xE0000FF0)
T30EC 001:306.849   Data:  0D 00 00 00 E0 00 00 00 05 00 00 00 B1 00 00 00
T30EC 001:306.862 - 0.710ms returns 0x00
T30EC 001:306.874 JLINK_ReadMem (0xE0000FD0, 0x0020 Bytes, ...)
T30EC 001:306.884    -- CPU_ReadMem(32 bytes @ 0xE0000FD0)
T30EC 001:307.711   Data:  04 00 00 00 00 00 00 00 00 00 00 00 00 00 00 00 ...
T30EC 001:307.724 - 0.853ms returns 0x00
T30EC 001:307.736 JLINK_ReadMem (0xE0040FF0, 0x0010 Bytes, ...)
T30EC 001:307.746    -- CPU_ReadMem(16 bytes @ 0xE0040FF0)
T30EC 001:308.389   Data:  0D 00 00 00 90 00 00 00 05 00 00 00 B1 00 00 00
T30EC 001:308.401 - 0.669ms returns 0x00
T30EC 001:308.413 JLINK_ReadMem (0xE0040FD0, 0x0020 Bytes, ...)
T30EC 001:308.424    -- CPU_ReadMem(32 bytes @ 0xE0040FD0)
T30EC 001:309.377   Data:  04 00 00 00 00 00 00 00 00 00 00 00 00 00 00 00 ...
T30EC 001:309.434 - 1.035ms returns 0x00
T30EC 001:309.482 JLINK_ReadMem (0xE0041FF0, 0x0010 Bytes, ...)
T30EC 001:309.515    -- CPU_ReadMem(16 bytes @ 0xE0041FF0)
T30EC 001:310.216   Data:  0D 00 00 00 90 00 00 00 05 00 00 00 B1 00 00 00
T30EC 001:310.242 - 0.763ms returns 0x00
T30EC 001:310.254 JLINK_ReadMem (0xE0041FD0, 0x0020 Bytes, ...)
T30EC 001:310.265    -- CPU_ReadMem(32 bytes @ 0xE0041FD0)
T30EC 001:311.064   Data:  04 00 00 00 00 00 00 00 00 00 00 00 00 00 00 00 ...
T30EC 001:311.077 - 0.827ms returns 0x00
T30EC 001:311.090   JLINK_ReadMemU32(0xE000EF40, 0x0001 Items, ...)
T30EC 001:311.122    -- CPU_ReadMem(4 bytes @ 0xE000EF40)
T30EC 001:311.730   Data:  21 00 11 10
T30EC 001:311.743 - 0.656ms returns 1
T30EC 001:311.755   JLINK_ReadMemU32(0xE000EF44, 0x0001 Items, ...)
T30EC 001:311.768    -- CPU_ReadMem(4 bytes @ 0xE000EF44)
T30EC 001:312.364   Data:  11 00 00 11
T30EC 001:312.377 - 0.625ms returns 1
T30EC 001:312.389   JLINK_ReadMemU32(0xE000ED00, 0x0001 Items, ...)
T30EC 001:312.402    -- CPU_ReadMem(4 bytes @ 0xE000ED00)
T30EC 001:313.011   Data:  41 C2 0F 41
T30EC 001:313.027    - CPUID
T30EC 001:313.036 - 0.651ms returns 1
T30EC 001:313.052 JLINK_SetResetType(JLINKARM_CM3_RESET_TYPE_NORMAL)
T30EC 001:313.059 - 0.010ms returns JLINKARM_CM3_RESET_TYPE_NORMAL
T30EC 001:313.069 JLINK_Reset()
T30EC 001:313.082   CPU is running
T30EC 001:313.093    -- CPU_WriteMem(4 bytes @ 0xE000EDF0)
T30EC 001:313.720   CPU is running
T30EC 001:313.734    -- CPU_WriteMem(4 bytes @ 0xE000EDFC)
T30EC 001:317.779   Reset: Halt core after reset via DEMCR.VC_CORERESET.
T30EC 001:321.017   Reset: Reset device via AIRCR.SYSRESETREQ.
T30EC 001:321.036   CPU is running
T30EC 001:321.049    -- CPU_WriteMem(4 bytes @ 0xE000ED0C)
T30EC 001:372.487    -- CPU_ReadMem(4 bytes @ 0xE000EDF0)
T30EC 001:374.107    -- CPU_ReadMem(4 bytes @ 0xE000EDF0)
T30EC 001:375.455   CPU is running
T30EC 001:375.501    -- CPU_WriteMem(4 bytes @ 0xE000EDF0)
T30EC 001:376.571   CPU is running
T30EC 001:376.634    -- CPU_WriteMem(4 bytes @ 0xE000EDFC)
T30EC 001:383.526    -- CPU_ReadMem(4 bytes @ 0xE000EDF0)
T30EC 001:390.655    -- CPU_WriteMem(4 bytes @ 0xE000EDFC)
T30EC 001:392.012    -- CPU_WriteMem(4 bytes @ 0xE0001028)
T30EC 001:393.757    -- CPU_WriteMem(4 bytes @ 0xE0001038)
T30EC 001:395.707    -- CPU_WriteMem(4 bytes @ 0xE0001048)
T30EC 001:397.015    -- CPU_WriteMem(4 bytes @ 0xE0001058)
T30EC 001:397.854    -- CPU_WriteMem(4 bytes @ 0xE0002000)
T30EC 001:399.282    -- CPU_ReadMem(4 bytes @ 0xE000EDFC)
T30EC 001:400.092    -- CPU_ReadMem(4 bytes @ 0xE0001000)
T30EC 001:401.644 - 88.592ms
T30EC 001:401.681 JLINK_Halt()
T30EC 001:401.689 - 0.011ms returns 0x00
T30EC 001:401.699 JLINK_IsHalted()
T30EC 001:401.706 - 0.011ms returns TRUE
T30EC 001:401.717   JLINK_ReadMemU32(0xE000EDF0, 0x0001 Items, ...)
T30EC 001:401.736    -- CPU_ReadMem(4 bytes @ 0xE000EDF0)
T30EC 001:403.529   Data:  03 00 03 00
T30EC 001:403.557    - DHCSR
T30EC 001:403.567 - 1.854ms returns 1
T30EC 001:403.590   JLINK_WriteU32(0xE000EDF0, 0xA05F0003)
T30EC 001:403.602    - DHCSR
T30EC 001:403.634    -- CPU_WriteMem(4 bytes @ 0xE000EDF0)
T30EC 001:405.452 - 1.884ms returns 0
T30EC 001:405.525   JLINK_WriteU32(0xE000EDFC, 0x01000000)
T30EC 001:405.557    - DEMCR
T30EC 001:405.598    -- CPU_WriteMem(4 bytes @ 0xE000EDFC)
T30EC 001:406.365 - 0.852ms returns 0
T30EC 001:419.178 JLINK_GetHWStatus(...)
T30EC 001:419.939 - 0.777ms returns 0x00
T30EC 001:429.848 JLINK_GetNumBPUnits(Type = 0xFFFFFF00)
T30EC 001:429.866 - 0.021ms returns 0x06
T30EC 001:429.876 JLINK_GetNumBPUnits(Type = 0xF0)
T30EC 001:429.883 - 0.010ms returns 0x2000
T30EC 001:429.893 JLINK_GetNumWPUnits()
T30EC 001:429.899 - 0.009ms returns 0x04
T30EC 001:440.402 JLINK_GetSpeed()
T30EC 001:440.422 - 0.023ms returns 0x2EE0
T30EC 001:446.668   JLINK_ReadMemU32(0xE000E004, 0x0001 Items, ...)
T30EC 001:446.698    -- CPU_ReadMem(4 bytes @ 0xE000E004)
T30EC 001:448.033   Data:  02 00 00 00
T30EC 001:448.094 - 1.430ms returns 1
T30EC 001:448.131   JLINK_ReadMemU32(0xE000E004, 0x0001 Items, ...)
T30EC 001:448.176    -- CPU_ReadMem(4 bytes @ 0xE000E004)
T30EC 001:449.037   Data:  02 00 00 00
T30EC 001:449.054 - 0.927ms returns 1
T30EC 001:449.067 JLINK_WriteMem(0xE0001000, 0x001C Bytes, ...)
T30EC 001:449.076   Data:  01 00 00 00 00 00 00 00 00 00 00 00 00 00 00 00 ...
T30EC 001:449.758    -- CPU_WriteMem(28 bytes @ 0xE0001000)
T30EC 001:451.116 - 2.070ms returns 0x1C
T30EC 001:451.150 JLINK_ReadMem (0xE0001000, 0x001C Bytes, ...)
T30EC 001:451.169    -- CPU_ReadMem(28 bytes @ 0xE0001000)
T30EC 001:452.957   Data:  01 00 00 40 00 00 00 00 00 00 00 00 00 00 00 00 ...
T30EC 001:452.981 - 1.835ms returns 0x00
T30EC 001:453.007 JLINK_Halt()
T30EC 001:453.014 - 0.011ms returns 0x00
T30EC 001:453.024 JLINK_IsHalted()
T30EC 001:453.031 - 0.010ms returns TRUE
T30EC 001:467.658 JLINK_WriteMem(0x20000000, 0x0180 Bytes, ...)
T30EC 001:467.673   Data:  00 BE 0A E0 0D 78 2D 06 68 40 08 24 40 00 00 D3 ...
T30EC 001:468.337    -- CPU_WriteMem(384 bytes @ 0x20000000)
T30EC 001:471.650 - 4.011ms returns 0x180
T30EC 001:471.721 JLINK_WriteReg(R0, 0x08000000)
T30EC 001:471.735 - 0.017ms returns 0x00
T30EC 001:471.745 JLINK_WriteReg(R1, 0x0A037A00)
T30EC 001:471.752 - 0.010ms returns 0x00
T30EC 001:471.761 JLINK_WriteReg(R2, 0x00000001)
T30EC 001:471.768 - 0.010ms returns 0x00
T30EC 001:471.778 JLINK_WriteReg(R3, 0x00000000)
T30EC 001:471.784 - 0.010ms returns 0x00
T30EC 001:471.794 JLINK_WriteReg(R4, 0x00000000)
T30EC 001:471.801 - 0.010ms returns 0x00
T30EC 001:471.810 JLINK_WriteReg(R5, 0x00000000)
T30EC 001:471.817 - 0.010ms returns 0x00
T30EC 001:471.826 JLINK_WriteReg(R6, 0x00000000)
T30EC 001:471.833 - 0.010ms returns 0x00
T30EC 001:471.842 JLINK_WriteReg(R7, 0x00000000)
T30EC 001:471.849 - 0.010ms returns 0x00
T30EC 001:471.858 JLINK_WriteReg(R8, 0x00000000)
T30EC 001:471.873 - 0.017ms returns 0x00
T30EC 001:471.882 JLINK_WriteReg(R9, 0x2000017C)
T30EC 001:471.889 - 0.010ms returns 0x00
T30EC 001:471.898 JLINK_WriteReg(R10, 0x00000000)
T30EC 001:471.905 - 0.010ms returns 0x00
T30EC 001:471.914 JLINK_WriteReg(R11, 0x00000000)
T30EC 001:471.921 - 0.010ms returns 0x00
T30EC 001:471.931 JLINK_WriteReg(R12, 0x00000000)
T30EC 001:471.938 - 0.010ms returns 0x00
T30EC 001:471.947 JLINK_WriteReg(R13 (SP), 0x20001000)
T30EC 001:471.955 - 0.011ms returns 0x00
T30EC 001:471.964 JLINK_WriteReg(R14, 0x20000001)
T30EC 001:471.971 - 0.010ms returns 0x00
T30EC 001:471.980 JLINK_WriteReg(R15 (PC), 0x20000054)
T30EC 001:471.987 - 0.010ms returns 0x00
T30EC 001:471.996 JLINK_WriteReg(XPSR, 0x01000000)
T30EC 001:472.003 - 0.010ms returns 0x00
T30EC 001:472.013 JLINK_WriteReg(MSP, 0x20001000)
T30EC 001:472.020 - 0.010ms returns 0x00
T30EC 001:472.029 JLINK_WriteReg(PSP, 0x20001000)
T30EC 001:472.036 - 0.010ms returns 0x00
T30EC 001:472.045 JLINK_WriteReg(CFBP, 0x00000000)
T30EC 001:472.052 - 0.010ms returns 0x00
T30EC 001:472.062   JLINK_SetBPEx(Addr = 0x20000000, Type = 0xFFFFFFF2)
T30EC 001:472.077    -- CPU_ReadMem(2 bytes @ 0x20000000)
T30EC 001:473.274 - 1.248ms returns 0x00000001
T30EC 001:473.327 JLINK_Go()
T30EC 001:473.345    -- CPU_WriteMem(2 bytes @ 0x20000000)
T30EC 001:475.988    -- CPU_ReadMem(4 bytes @ 0xE0001000)
T30EC 001:477.450    -- CPU_WriteMem(4 bytes @ 0xE0002008)
T30EC 001:477.533    -- CPU_WriteMem(4 bytes @ 0xE000200C)
T30EC 001:477.561    -- CPU_WriteMem(4 bytes @ 0xE0002010)
T30EC 001:477.591    -- CPU_WriteMem(4 bytes @ 0xE0002014)
T30EC 001:477.617    -- CPU_WriteMem(4 bytes @ 0xE0002018)
T30EC 001:477.627    -- CPU_WriteMem(4 bytes @ 0xE000201C)
T30EC 001:480.304    -- CPU_WriteMem(4 bytes @ 0xE0001004)
T30EC 001:484.710 - 11.399ms
T30EC 001:484.743 JLINK_IsHalted()
T30EC 001:488.683    -- CPU_ReadMem(2 bytes @ 0x20000000)
T30EC 001:489.943 - 5.217ms returns TRUE
T30EC 001:489.976 JLINK_ReadReg(R15 (PC))
T30EC 001:489.988 - 0.015ms returns 0x20000000
T30EC 001:489.998 JLINK_ClrBPEx(BPHandle = 0x00000001)
T30EC 001:490.005 - 0.011ms returns 0x00
T30EC 001:490.015 JLINK_ReadReg(R0)
T30EC 001:490.023 - 0.010ms returns 0x00000000
T30EC 001:491.540 JLINK_WriteReg(R0, 0x08000000)
T30EC 001:491.559 - 0.023ms returns 0x00
T30EC 001:491.569 JLINK_WriteReg(R1, 0x00004000)
T30EC 001:491.577 - 0.010ms returns 0x00
T30EC 001:491.586 JLINK_WriteReg(R2, 0x000000FF)
T30EC 001:491.593 - 0.010ms returns 0x00
T30EC 001:491.602 JLINK_WriteReg(R3, 0x00000000)
T30EC 001:491.609 - 0.010ms returns 0x00
T30EC 001:491.618 JLINK_WriteReg(R4, 0x00000000)
T30EC 001:491.625 - 0.010ms returns 0x00
T30EC 001:491.635 JLINK_WriteReg(R5, 0x00000000)
T30EC 001:491.642 - 0.010ms returns 0x00
T30EC 001:491.651 JLINK_WriteReg(R6, 0x00000000)
T30EC 001:491.658 - 0.010ms returns 0x00
T30EC 001:491.667 JLINK_WriteReg(R7, 0x00000000)
T30EC 001:491.674 - 0.010ms returns 0x00
T30EC 001:491.683 JLINK_WriteReg(R8, 0x00000000)
T30EC 001:491.690 - 0.010ms returns 0x00
T30EC 001:491.700 JLINK_WriteReg(R9, 0x2000017C)
T30EC 001:491.707 - 0.010ms returns 0x00
T30EC 001:491.717 JLINK_WriteReg(R10, 0x00000000)
T30EC 001:491.725 - 0.011ms returns 0x00
T30EC 001:491.734 JLINK_WriteReg(R11, 0x00000000)
T30EC 001:491.741 - 0.010ms returns 0x00
T30EC 001:491.750 JLINK_WriteReg(R12, 0x00000000)
T30EC 001:491.757 - 0.010ms returns 0x00
T30EC 001:491.766 JLINK_WriteReg(R13 (SP), 0x20001000)
T30EC 001:491.774 - 0.010ms returns 0x00
T30EC 001:491.783 JLINK_WriteReg(R14, 0x20000001)
T30EC 001:491.790 - 0.010ms returns 0x00
T30EC 001:491.799 JLINK_WriteReg(R15 (PC), 0x20000020)
T30EC 001:491.806 - 0.010ms returns 0x00
T30EC 001:491.815 JLINK_WriteReg(XPSR, 0x01000000)
T30EC 001:491.823 - 0.010ms returns 0x00
T30EC 001:491.832 JLINK_WriteReg(MSP, 0x20001000)
T30EC 001:491.839 - 0.010ms returns 0x00
T30EC 001:491.848 JLINK_WriteReg(PSP, 0x20001000)
T30EC 001:491.855 - 0.010ms returns 0x00
T30EC 001:491.864 JLINK_WriteReg(CFBP, 0x00000000)
T30EC 001:491.871 - 0.010ms returns 0x00
T30EC 001:491.881   JLINK_SetBPEx(Addr = 0x20000000, Type = 0xFFFFFFF2)
T30EC 001:491.892 - 0.015ms returns 0x00000002
T30EC 001:491.901 JLINK_Go()
T30EC 001:491.917    -- CPU_ReadMem(4 bytes @ 0xE0001000)
T30EC 001:496.200 - 4.327ms
T30EC 001:496.241 JLINK_IsHalted()
T30EC 001:499.583    -- CPU_ReadMem(2 bytes @ 0x20000000)
T30EC 001:501.414 - 5.207ms returns TRUE
T30EC 001:501.460 JLINK_ReadReg(R15 (PC))
T30EC 001:501.472 - 0.016ms returns 0x20000000
T30EC 001:501.482 JLINK_ClrBPEx(BPHandle = 0x00000002)
T30EC 001:501.490 - 0.011ms returns 0x00
T30EC 001:501.500 JLINK_ReadReg(R0)
T30EC 001:501.507 - 0.010ms returns 0x00000001
T30EC 001:501.521 JLINK_WriteReg(R0, 0x08000000)
T30EC 001:501.529 - 0.011ms returns 0x00
T30EC 001:501.538 JLINK_WriteReg(R1, 0x00004000)
T30EC 001:501.545 - 0.010ms returns 0x00
T30EC 001:501.554 JLINK_WriteReg(R2, 0x000000FF)
T30EC 001:501.561 - 0.010ms returns 0x00
T30EC 001:501.570 JLINK_WriteReg(R3, 0x00000000)
T30EC 001:501.577 - 0.010ms returns 0x00
T30EC 001:501.586 JLINK_WriteReg(R4, 0x00000000)
T30EC 001:501.593 - 0.010ms returns 0x00
T30EC 001:501.602 JLINK_WriteReg(R5, 0x00000000)
T30EC 001:501.613 - 0.016ms returns 0x00
T30EC 001:501.625 JLINK_WriteReg(R6, 0x00000000)
T30EC 001:501.632 - 0.010ms returns 0x00
T30EC 001:501.641 JLINK_WriteReg(R7, 0x00000000)
T30EC 001:501.648 - 0.010ms returns 0x00
T30EC 001:501.657 JLINK_WriteReg(R8, 0x00000000)
T30EC 001:501.664 - 0.010ms returns 0x00
T30EC 001:501.673 JLINK_WriteReg(R9, 0x2000017C)
T30EC 001:501.680 - 0.010ms returns 0x00
T30EC 001:501.689 JLINK_WriteReg(R10, 0x00000000)
T30EC 001:501.696 - 0.010ms returns 0x00
T30EC 001:501.705 JLINK_WriteReg(R11, 0x00000000)
T30EC 001:501.712 - 0.010ms returns 0x00
T30EC 001:501.721 JLINK_WriteReg(R12, 0x00000000)
T30EC 001:501.728 - 0.010ms returns 0x00
T30EC 001:501.738 JLINK_WriteReg(R13 (SP), 0x20001000)
T30EC 001:501.745 - 0.010ms returns 0x00
T30EC 001:501.754 JLINK_WriteReg(R14, 0x20000001)
T30EC 001:501.761 - 0.010ms returns 0x00
T30EC 001:501.770 JLINK_WriteReg(R15 (PC), 0x200000BC)
T30EC 001:501.777 - 0.010ms returns 0x00
T30EC 001:501.786 JLINK_WriteReg(XPSR, 0x01000000)
T30EC 001:501.793 - 0.010ms returns 0x00
T30EC 001:501.802 JLINK_WriteReg(MSP, 0x20001000)
T30EC 001:501.809 - 0.010ms returns 0x00
T30EC 001:501.819 JLINK_WriteReg(PSP, 0x20001000)
T30EC 001:501.826 - 0.010ms returns 0x00
T30EC 001:501.835 JLINK_WriteReg(CFBP, 0x00000000)
T30EC 001:501.842 - 0.010ms returns 0x00
T30EC 001:501.852   JLINK_SetBPEx(Addr = 0x20000000, Type = 0xFFFFFFF2)
T30EC 001:501.862 - 0.014ms returns 0x00000003
T30EC 001:501.872 JLINK_Go()
T30EC 001:501.886    -- CPU_ReadMem(4 bytes @ 0xE0001000)
T30EC 001:506.434 - 4.578ms
T30EC 001:506.461 JLINK_IsHalted()
T30EC 001:508.183 - 1.758ms returns FALSE
T30EC 001:535.609 JLINK_IsHalted()
T30EC 001:537.111 - 1.520ms returns FALSE
T30EC 001:538.688 JLINK_IsHalted()
T30EC 001:540.110 - 1.443ms returns FALSE
T30EC 001:544.604 JLINK_IsHalted()
T30EC 001:545.323 - 0.734ms returns FALSE
T30EC 001:547.189 JLINK_IsHalted()
T30EC 001:547.870 - 0.690ms returns FALSE
T30EC 001:549.327 JLINK_IsHalted()
T30EC 001:551.026 - 1.717ms returns FALSE
T30EC 001:552.663 JLINK_IsHalted()
T30EC 001:554.013 - 1.368ms returns FALSE
T30EC 001:555.659 JLINK_IsHalted()
T30EC 001:556.789 - 1.162ms returns FALSE
T30EC 001:559.623 JLINK_IsHalted()
T30EC 001:561.032 - 1.425ms returns FALSE
T30EC 001:562.700 JLINK_IsHalted()
T30EC 001:563.926 - 1.243ms returns FALSE
T30EC 001:565.655 JLINK_IsHalted()
T30EC 001:566.995 - 1.356ms returns FALSE
T30EC 001:568.677 JLINK_IsHalted()
T30EC 001:569.959 - 1.300ms returns FALSE
T30EC 001:571.204 JLINK_IsHalted()
T30EC 001:572.111 - 0.944ms returns FALSE
T30EC 001:574.735 JLINK_IsHalted()
T30EC 001:576.103 - 1.386ms returns FALSE
T30EC 001:577.693 JLINK_IsHalted()
T30EC 001:579.000 - 1.324ms returns FALSE
T30EC 001:580.698 JLINK_IsHalted()
T30EC 001:581.581 - 0.894ms returns FALSE
T30EC 001:583.625 JLINK_IsHalted()
T30EC 001:585.593 - 1.989ms returns FALSE
T30EC 001:588.731 JLINK_IsHalted()
T30EC 001:589.607 - 0.891ms returns FALSE
T30EC 001:591.661 JLINK_IsHalted()
T30EC 001:593.086 - 1.462ms returns FALSE
T30EC 001:594.646 JLINK_IsHalted()
T30EC 001:596.062 - 1.453ms returns FALSE
T30EC 001:597.752 JLINK_IsHalted()
T30EC 001:598.512 - 0.776ms returns FALSE
T30EC 001:600.646 JLINK_IsHalted()
T30EC 001:602.041 - 1.413ms returns FALSE
T30EC 001:603.680 JLINK_IsHalted()
T30EC 001:605.098 - 1.454ms returns FALSE
T30EC 001:606.668 JLINK_IsHalted()
T30EC 001:607.982 - 1.331ms returns FALSE
T30EC 001:611.637 JLINK_IsHalted()
T30EC 001:613.024 - 1.404ms returns FALSE
T30EC 001:614.750 JLINK_IsHalted()
T30EC 001:616.121 - 1.404ms returns FALSE
T30EC 001:617.683 JLINK_IsHalted()
T30EC 001:619.022 - 1.355ms returns FALSE
T30EC 001:620.691 JLINK_IsHalted()
T30EC 001:621.394 - 0.726ms returns FALSE
T30EC 001:622.676 JLINK_IsHalted()
T30EC 001:623.982 - 1.323ms returns FALSE
T30EC 001:625.217 JLINK_IsHalted()
T30EC 001:626.351 - 1.167ms returns FALSE
T30EC 001:627.699 JLINK_IsHalted()
T30EC 001:628.922 - 1.239ms returns FALSE
T30EC 001:630.669 JLINK_IsHalted()
T30EC 001:632.006 - 1.356ms returns FALSE
T30EC 001:633.714 JLINK_IsHalted()
T30EC 001:634.709 - 1.021ms returns FALSE
T30EC 001:637.688 JLINK_IsHalted()
T30EC 001:639.015 - 1.343ms returns FALSE
T30EC 001:640.703 JLINK_IsHalted()
T30EC 001:642.647 - 1.966ms returns FALSE
T30EC 001:644.521 JLINK_IsHalted()
T30EC 001:645.264 - 0.757ms returns FALSE
T30EC 001:646.696 JLINK_IsHalted()
T30EC 001:648.008 - 1.329ms returns FALSE
T30EC 001:649.629 JLINK_IsHalted()
T30EC 001:650.845 - 1.232ms returns FALSE
T30EC 001:654.750 JLINK_IsHalted()
T30EC 001:656.198 - 1.465ms returns FALSE
T30EC 001:657.681 JLINK_IsHalted()
T30EC 001:659.004 - 1.377ms returns FALSE
T30EC 001:660.665 JLINK_IsHalted()
T30EC 001:662.113 - 1.485ms returns FALSE
T30EC 001:663.688 JLINK_IsHalted()
T30EC 001:665.013 - 1.340ms returns FALSE
T30EC 001:666.731 JLINK_IsHalted()
T30EC 001:667.667 - 0.949ms returns FALSE
T30EC 001:671.708 JLINK_IsHalted()
T30EC 001:672.958 - 1.266ms returns FALSE
T30EC 001:674.683 JLINK_IsHalted()
T30EC 001:675.977 - 1.312ms returns FALSE
T30EC 001:677.638 JLINK_IsHalted()
T30EC 001:678.892 - 1.271ms returns FALSE
T30EC 001:680.703 JLINK_IsHalted()
T30EC 001:681.570 - 0.899ms returns FALSE
T30EC 001:684.715 JLINK_IsHalted()
T30EC 001:686.047 - 1.348ms returns FALSE
T30EC 001:687.641 JLINK_IsHalted()
T30EC 001:688.906 - 1.282ms returns FALSE
T30EC 001:690.694 JLINK_IsHalted()
T30EC 001:692.003 - 1.325ms returns FALSE
T30EC 001:693.662 JLINK_IsHalted()
T30EC 001:694.928 - 1.283ms returns FALSE
T30EC 001:697.210 JLINK_IsHalted()
T30EC 001:698.128 - 0.978ms returns FALSE
T30EC 001:701.648 JLINK_IsHalted()
T30EC 001:702.984 - 1.354ms returns FALSE
T30EC 001:704.698 JLINK_IsHalted()
T30EC 001:706.021 - 1.340ms returns FALSE
T30EC 001:707.658 JLINK_IsHalted()
T30EC 001:708.927 - 1.285ms returns FALSE
T30EC 001:710.685 JLINK_IsHalted()
T30EC 001:712.052 - 1.383ms returns FALSE
T30EC 001:713.681 JLINK_IsHalted()
T30EC 001:714.546 - 0.891ms returns FALSE
T30EC 001:719.716 JLINK_IsHalted()
T30EC 001:721.035 - 1.334ms returns FALSE
T30EC 001:722.669 JLINK_IsHalted()
T30EC 001:723.961 - 1.308ms returns FALSE
T30EC 001:725.714 JLINK_IsHalted()
T30EC 001:726.931 - 1.257ms returns FALSE
T30EC 001:728.844 JLINK_IsHalted()
T30EC 001:729.592 - 0.771ms returns FALSE
T30EC 001:731.420 JLINK_IsHalted()
T30EC 001:732.274 - 0.877ms returns FALSE
T30EC 001:733.696 JLINK_IsHalted()
T30EC 001:734.972 - 1.292ms returns FALSE
T30EC 001:736.660 JLINK_IsHalted()
T30EC 001:738.070 - 1.426ms returns FALSE
T30EC 001:739.659 JLINK_IsHalted()
T30EC 001:740.918 - 1.275ms returns FALSE
T30EC 001:742.655 JLINK_IsHalted()
T30EC 001:744.074 - 1.465ms returns FALSE
T30EC 001:747.515 JLINK_IsHalted()
T30EC 001:748.268 - 0.794ms returns FALSE
T30EC 001:750.668 JLINK_IsHalted()
T30EC 001:751.615 - 0.960ms returns FALSE
T30EC 001:753.657 JLINK_IsHalted()
T30EC 001:754.928 - 1.288ms returns FALSE
T30EC 001:756.668 JLINK_IsHalted()
T30EC 001:757.986 - 1.361ms returns FALSE
T30EC 001:759.715 JLINK_IsHalted()
T30EC 001:760.673 - 0.997ms returns FALSE
T30EC 001:763.703 JLINK_IsHalted()
T30EC 001:765.243 - 1.572ms returns FALSE
T30EC 001:766.702 JLINK_IsHalted()
T30EC 001:767.958 - 1.271ms returns FALSE
T30EC 001:769.716 JLINK_IsHalted()
T30EC 001:771.073 - 1.393ms returns FALSE
T30EC 001:772.675 JLINK_IsHalted()
T30EC 001:774.093 - 1.435ms returns FALSE
T30EC 001:777.694 JLINK_IsHalted()
T30EC 001:779.102 - 1.425ms returns FALSE
T30EC 001:780.669 JLINK_IsHalted()
T30EC 001:782.078 - 1.426ms returns FALSE
T30EC 001:783.666 JLINK_IsHalted()
T30EC 001:785.301 - 1.651ms returns FALSE
T30EC 001:786.654 JLINK_IsHalted()
T30EC 001:787.917 - 1.278ms returns FALSE
T30EC 001:789.637 JLINK_IsHalted()
T30EC 001:791.234 - 1.613ms returns FALSE
T30EC 001:792.665 JLINK_IsHalted()
T30EC 001:793.649 - 1.002ms returns FALSE
T30EC 001:796.587 JLINK_IsHalted()
T30EC 001:797.870 - 1.298ms returns FALSE
T30EC 001:799.259 JLINK_IsHalted()
T30EC 001:800.436 - 1.193ms returns FALSE
T30EC 001:802.676 JLINK_IsHalted()
T30EC 001:804.001 - 1.343ms returns FALSE
T30EC 001:805.680 JLINK_IsHalted()
T30EC 001:807.064 - 1.420ms returns FALSE
T30EC 001:811.610 JLINK_IsHalted()
T30EC 001:812.934 - 1.340ms returns FALSE
T30EC 001:814.755 JLINK_IsHalted()
T30EC 001:816.020 - 1.282ms returns FALSE
T30EC 001:817.670 JLINK_IsHalted()
T30EC 001:819.019 - 1.365ms returns FALSE
T30EC 001:820.658 JLINK_IsHalted()
T30EC 001:822.057 - 1.415ms returns FALSE
T30EC 001:826.812 JLINK_IsHalted()
T30EC 001:828.137 - 1.343ms returns FALSE
T30EC 001:829.695 JLINK_IsHalted()
T30EC 001:831.055 - 1.377ms returns FALSE
T30EC 001:832.649 JLINK_IsHalted()
T30EC 001:834.027 - 1.396ms returns FALSE
T30EC 001:835.703 JLINK_IsHalted()
T30EC 001:836.692 - 1.001ms returns FALSE
T30EC 001:838.675 JLINK_IsHalted()
T30EC 001:840.015 - 1.357ms returns FALSE
T30EC 001:841.692 JLINK_IsHalted()
T30EC 001:842.957 - 1.282ms returns FALSE
T30EC 001:844.732 JLINK_IsHalted()
T30EC 001:848.800    -- CPU_ReadMem(2 bytes @ 0x20000000)
T30EC 001:850.646 - 5.974ms returns TRUE
T30EC 001:850.718 JLINK_ReadReg(R15 (PC))
T30EC 001:850.730 - 0.016ms returns 0x20000000
T30EC 001:850.741 JLINK_ClrBPEx(BPHandle = 0x00000003)
T30EC 001:850.749 - 0.011ms returns 0x00
T30EC 001:850.759 JLINK_ReadReg(R0)
T30EC 001:850.766 - 0.011ms returns 0x00000000
T30EC 001:851.721 JLINK_WriteReg(R0, 0x08004000)
T30EC 001:851.740 - 0.023ms returns 0x00
T30EC 001:851.749 JLINK_WriteReg(R1, 0x00004000)
T30EC 001:851.756 - 0.010ms returns 0x00
T30EC 001:851.765 JLINK_WriteReg(R2, 0x000000FF)
T30EC 001:851.772 - 0.009ms returns 0x00
T30EC 001:851.781 JLINK_WriteReg(R3, 0x00000000)
T30EC 001:851.787 - 0.009ms returns 0x00
T30EC 001:851.796 JLINK_WriteReg(R4, 0x00000000)
T30EC 001:851.803 - 0.009ms returns 0x00
T30EC 001:851.811 JLINK_WriteReg(R5, 0x00000000)
T30EC 001:851.818 - 0.009ms returns 0x00
T30EC 001:851.827 JLINK_WriteReg(R6, 0x00000000)
T30EC 001:851.833 - 0.009ms returns 0x00
T30EC 001:851.842 JLINK_WriteReg(R7, 0x00000000)
T30EC 001:851.849 - 0.009ms returns 0x00
T30EC 001:851.857 JLINK_WriteReg(R8, 0x00000000)
T30EC 001:851.864 - 0.009ms returns 0x00
T30EC 001:851.873 JLINK_WriteReg(R9, 0x2000017C)
T30EC 001:851.879 - 0.009ms returns 0x00
T30EC 001:851.888 JLINK_WriteReg(R10, 0x00000000)
T30EC 001:851.895 - 0.009ms returns 0x00
T30EC 001:851.903 JLINK_WriteReg(R11, 0x00000000)
T30EC 001:851.910 - 0.009ms returns 0x00
T30EC 001:851.919 JLINK_WriteReg(R12, 0x00000000)
T30EC 001:851.925 - 0.009ms returns 0x00
T30EC 001:851.934 JLINK_WriteReg(R13 (SP), 0x20001000)
T30EC 001:851.941 - 0.010ms returns 0x00
T30EC 001:851.950 JLINK_WriteReg(R14, 0x20000001)
T30EC 001:851.957 - 0.010ms returns 0x00
T30EC 001:851.965 JLINK_WriteReg(R15 (PC), 0x20000020)
T30EC 001:851.972 - 0.009ms returns 0x00
T30EC 001:851.981 JLINK_WriteReg(XPSR, 0x01000000)
T30EC 001:851.987 - 0.009ms returns 0x00
T30EC 001:851.996 JLINK_WriteReg(MSP, 0x20001000)
T30EC 001:852.003 - 0.009ms returns 0x00
T30EC 001:852.011 JLINK_WriteReg(PSP, 0x20001000)
T30EC 001:852.018 - 0.009ms returns 0x00
T30EC 001:852.027 JLINK_WriteReg(CFBP, 0x00000000)
T30EC 001:852.033 - 0.009ms returns 0x00
T30EC 001:852.043   JLINK_SetBPEx(Addr = 0x20000000, Type = 0xFFFFFFF2)
T30EC 001:852.053 - 0.014ms returns 0x00000004
T30EC 001:852.062 JLINK_Go()
T30EC 001:852.096    -- CPU_ReadMem(4 bytes @ 0xE0001000)
T30EC 001:858.490 - 6.445ms
T30EC 001:858.524 JLINK_IsHalted()
T30EC 001:860.279 - 1.771ms returns FALSE
T30EC 001:863.648 JLINK_IsHalted()
T30EC 001:865.056 - 1.424ms returns FALSE
T30EC 001:866.645 JLINK_IsHalted()
T30EC 001:867.959 - 1.358ms returns FALSE
T30EC 001:874.436 JLINK_IsHalted()
T30EC 001:878.347    -- CPU_ReadMem(2 bytes @ 0x20000000)
T30EC 001:880.110 - 5.692ms returns TRUE
T30EC 001:880.143 JLINK_ReadReg(R15 (PC))
T30EC 001:880.169 - 0.030ms returns 0x20000000
T30EC 001:880.181 JLINK_ClrBPEx(BPHandle = 0x00000004)
T30EC 001:880.190 - 0.014ms returns 0x00
T30EC 001:880.204 JLINK_ReadReg(R0)
T30EC 001:880.213 - 0.012ms returns 0x00000000
T30EC 001:880.582 JLINK_WriteReg(R0, 0x00000001)
T30EC 001:880.649 - 0.070ms returns 0x00
T30EC 001:880.660 JLINK_WriteReg(R1, 0x00004000)
T30EC 001:880.667 - 0.010ms returns 0x00
T30EC 001:880.676 JLINK_WriteReg(R2, 0x000000FF)
T30EC 001:880.683 - 0.010ms returns 0x00
T30EC 001:880.692 JLINK_WriteReg(R3, 0x00000000)
T30EC 001:880.699 - 0.010ms returns 0x00
T30EC 001:880.708 JLINK_WriteReg(R4, 0x00000000)
T30EC 001:880.715 - 0.010ms returns 0x00
T30EC 001:880.724 JLINK_WriteReg(R5, 0x00000000)
T30EC 001:880.731 - 0.010ms returns 0x00
T30EC 001:880.741 JLINK_WriteReg(R6, 0x00000000)
T30EC 001:880.748 - 0.010ms returns 0x00
T30EC 001:880.757 JLINK_WriteReg(R7, 0x00000000)
T30EC 001:880.764 - 0.010ms returns 0x00
T30EC 001:880.773 JLINK_WriteReg(R8, 0x00000000)
T30EC 001:880.780 - 0.010ms returns 0x00
T30EC 001:880.789 JLINK_WriteReg(R9, 0x2000017C)
T30EC 001:880.796 - 0.010ms returns 0x00
T30EC 001:880.805 JLINK_WriteReg(R10, 0x00000000)
T30EC 001:880.812 - 0.010ms returns 0x00
T30EC 001:880.821 JLINK_WriteReg(R11, 0x00000000)
T30EC 001:880.828 - 0.010ms returns 0x00
T30EC 001:880.837 JLINK_WriteReg(R12, 0x00000000)
T30EC 001:880.847 - 0.015ms returns 0x00
T30EC 001:880.860 JLINK_WriteReg(R13 (SP), 0x20001000)
T30EC 001:880.869 - 0.013ms returns 0x00
T30EC 001:880.880 JLINK_WriteReg(R14, 0x20000001)
T30EC 001:880.887 - 0.011ms returns 0x00
T30EC 001:880.898 JLINK_WriteReg(R15 (PC), 0x20000082)
T30EC 001:880.905 - 0.010ms returns 0x00
T30EC 001:880.914 JLINK_WriteReg(XPSR, 0x01000000)
T30EC 001:880.921 - 0.010ms returns 0x00
T30EC 001:880.930 JLINK_WriteReg(MSP, 0x20001000)
T30EC 001:880.956 - 0.029ms returns 0x00
T30EC 001:880.966 JLINK_WriteReg(PSP, 0x20001000)
T30EC 001:880.973 - 0.010ms returns 0x00
T30EC 001:880.982 JLINK_WriteReg(CFBP, 0x00000000)
T30EC 001:880.990 - 0.010ms returns 0x00
T30EC 001:881.000   JLINK_SetBPEx(Addr = 0x20000000, Type = 0xFFFFFFF2)
T30EC 001:881.012 - 0.016ms returns 0x00000005
T30EC 001:881.022 JLINK_Go()
T30EC 001:881.072    -- CPU_ReadMem(4 bytes @ 0xE0001000)
T30EC 001:885.455 - 4.450ms
T30EC 001:885.484 JLINK_IsHalted()
T30EC 001:889.718    -- CPU_ReadMem(2 bytes @ 0x20000000)
T30EC 001:891.547 - 6.080ms returns TRUE
T30EC 001:891.581 JLINK_ReadReg(R15 (PC))
T30EC 001:891.594 - 0.017ms returns 0x20000000
T30EC 001:891.604 JLINK_ClrBPEx(BPHandle = 0x00000005)
T30EC 001:891.612 - 0.011ms returns 0x00
T30EC 001:891.737 JLINK_ReadReg(R0)
T30EC 001:891.751 - 0.018ms returns 0x00000000
T30EC 001:954.748 JLINK_WriteMem(0x20000000, 0x0180 Bytes, ...)
T30EC 001:954.763   Data:  00 BE 0A E0 0D 78 2D 06 68 40 08 24 40 00 00 D3 ...
T30EC 001:954.786    -- CPU_WriteMem(384 bytes @ 0x20000000)
T30EC 001:958.278 - 3.564ms returns 0x180
T30EC 001:958.393 JLINK_WriteReg(R0, 0x08000000)
T30EC 001:958.404 - 0.015ms returns 0x00
T30EC 001:958.414 JLINK_WriteReg(R1, 0x0A037A00)
T30EC 001:958.422 - 0.011ms returns 0x00
T30EC 001:958.431 JLINK_WriteReg(R2, 0x00000002)
T30EC 001:958.439 - 0.010ms returns 0x00
T30EC 001:958.448 JLINK_WriteReg(R3, 0x00000000)
T30EC 001:958.455 - 0.010ms returns 0x00
T30EC 001:958.465 JLINK_WriteReg(R4, 0x00000000)
T30EC 001:958.472 - 0.010ms returns 0x00
T30EC 001:958.481 JLINK_WriteReg(R5, 0x00000000)
T30EC 001:958.489 - 0.010ms returns 0x00
T30EC 001:958.498 JLINK_WriteReg(R6, 0x00000000)
T30EC 001:958.505 - 0.010ms returns 0x00
T30EC 001:958.515 JLINK_WriteReg(R7, 0x00000000)
T30EC 001:958.534 - 0.023ms returns 0x00
T30EC 001:958.543 JLINK_WriteReg(R8, 0x00000000)
T30EC 001:958.550 - 0.009ms returns 0x00
T30EC 001:958.558 JLINK_WriteReg(R9, 0x2000017C)
T30EC 001:958.565 - 0.009ms returns 0x00
T30EC 001:958.574 JLINK_WriteReg(R10, 0x00000000)
T30EC 001:958.580 - 0.009ms returns 0x00
T30EC 001:958.589 JLINK_WriteReg(R11, 0x00000000)
T30EC 001:958.596 - 0.010ms returns 0x00
T30EC 001:958.606 JLINK_WriteReg(R12, 0x00000000)
T30EC 001:958.613 - 0.011ms returns 0x00
T30EC 001:958.623 JLINK_WriteReg(R13 (SP), 0x20001000)
T30EC 001:958.631 - 0.011ms returns 0x00
T30EC 001:958.640 JLINK_WriteReg(R14, 0x20000001)
T30EC 001:958.650 - 0.014ms returns 0x00
T30EC 001:958.660 JLINK_WriteReg(R15 (PC), 0x20000054)
T30EC 001:958.667 - 0.010ms returns 0x00
T30EC 001:958.676 JLINK_WriteReg(XPSR, 0x01000000)
T30EC 001:958.682 - 0.009ms returns 0x00
T30EC 001:958.691 JLINK_WriteReg(MSP, 0x20001000)
T30EC 001:958.698 - 0.009ms returns 0x00
T30EC 001:958.706 JLINK_WriteReg(PSP, 0x20001000)
T30EC 001:958.713 - 0.009ms returns 0x00
T30EC 001:958.721 JLINK_WriteReg(CFBP, 0x00000000)
T30EC 001:958.728 - 0.009ms returns 0x00
T30EC 001:958.738   JLINK_SetBPEx(Addr = 0x20000000, Type = 0xFFFFFFF2)
T30EC 001:958.751    -- CPU_ReadMem(2 bytes @ 0x20000000)
T30EC 001:960.302 - 1.582ms returns 0x00000006
T30EC 001:960.331 JLINK_Go()
T30EC 001:960.344    -- CPU_WriteMem(2 bytes @ 0x20000000)
T30EC 001:962.248    -- CPU_ReadMem(4 bytes @ 0xE0001000)
T30EC 001:967.044 - 6.730ms
T30EC 001:967.073 JLINK_IsHalted()
T30EC 001:970.725    -- CPU_ReadMem(2 bytes @ 0x20000000)
T30EC 001:972.058 - 5.001ms returns TRUE
T30EC 001:972.091 JLINK_ReadReg(R15 (PC))
T30EC 001:972.127 - 0.040ms returns 0x20000000
T30EC 001:972.153 JLINK_ClrBPEx(BPHandle = 0x00000006)
T30EC 001:972.161 - 0.030ms returns 0x00
T30EC 001:972.209 JLINK_ReadReg(R0)
T30EC 001:972.217 - 0.011ms returns 0x00000000
T30EC 001:973.707 JLINK_WriteMem(0x20000180, 0x0400 Bytes, ...)
T30EC 001:973.729   Data:  C0 65 00 20 39 03 00 08 2B 24 00 08 DD 1D 00 08 ...
T30EC 001:973.756    -- CPU_WriteMem(1024 bytes @ 0x20000180)
T30EC 001:979.724 - 6.034ms returns 0x400
T30EC 001:979.760 JLINK_WriteReg(R0, 0x08000000)
T30EC 001:979.788 - 0.032ms returns 0x00
T30EC 001:979.798 JLINK_WriteReg(R1, 0x00000400)
T30EC 001:979.806 - 0.011ms returns 0x00
T30EC 001:979.816 JLINK_WriteReg(R2, 0x20000180)
T30EC 001:979.824 - 0.011ms returns 0x00
T30EC 001:979.833 JLINK_WriteReg(R3, 0x00000000)
T30EC 001:979.841 - 0.010ms returns 0x00
T30EC 001:979.850 JLINK_WriteReg(R4, 0x00000000)
T30EC 001:979.858 - 0.011ms returns 0x00
T30EC 001:979.868 JLINK_WriteReg(R5, 0x00000000)
T30EC 001:979.876 - 0.011ms returns 0x00
T30EC 001:979.885 JLINK_WriteReg(R6, 0x00000000)
T30EC 001:979.893 - 0.010ms returns 0x00
T30EC 001:979.902 JLINK_WriteReg(R7, 0x00000000)
T30EC 001:979.910 - 0.011ms returns 0x00
T30EC 001:979.920 JLINK_WriteReg(R8, 0x00000000)
T30EC 001:979.928 - 0.010ms returns 0x00
T30EC 001:979.937 JLINK_WriteReg(R9, 0x2000017C)
T30EC 001:979.944 - 0.010ms returns 0x00
T30EC 001:979.954 JLINK_WriteReg(R10, 0x00000000)
T30EC 001:979.961 - 0.011ms returns 0x00
T30EC 001:979.971 JLINK_WriteReg(R11, 0x00000000)
T30EC 001:979.979 - 0.011ms returns 0x00
T30EC 001:979.989 JLINK_WriteReg(R12, 0x00000000)
T30EC 001:979.996 - 0.011ms returns 0x00
T30EC 001:980.006 JLINK_WriteReg(R13 (SP), 0x20001000)
T30EC 001:980.015 - 0.013ms returns 0x00
T30EC 001:980.025 JLINK_WriteReg(R14, 0x20000001)
T30EC 001:980.032 - 0.010ms returns 0x00
T30EC 001:980.041 JLINK_WriteReg(R15 (PC), 0x20000108)
T30EC 001:980.048 - 0.010ms returns 0x00
T30EC 001:980.058 JLINK_WriteReg(XPSR, 0x01000000)
T30EC 001:980.065 - 0.010ms returns 0x00
T30EC 001:980.074 JLINK_WriteReg(MSP, 0x20001000)
T30EC 001:980.081 - 0.010ms returns 0x00
T30EC 001:980.090 JLINK_WriteReg(PSP, 0x20001000)
T30EC 001:980.097 - 0.010ms returns 0x00
T30EC 001:980.106 JLINK_WriteReg(CFBP, 0x00000000)
T30EC 001:980.114 - 0.010ms returns 0x00
T30EC 001:980.129   JLINK_SetBPEx(Addr = 0x20000000, Type = 0xFFFFFFF2)
T30EC 001:980.141 - 0.017ms returns 0x00000007
T30EC 001:980.151 JLINK_Go()
T30EC 001:980.167    -- CPU_ReadMem(4 bytes @ 0xE0001000)
T30EC 001:985.646 - 5.528ms
T30EC 001:985.693 JLINK_IsHalted()
T30EC 001:986.920 - 1.243ms returns FALSE
T30EC 001:999.789 JLINK_IsHalted()
T30EC 002:003.760    -- CPU_ReadMem(2 bytes @ 0x20000000)
T30EC 002:005.379 - 5.607ms returns TRUE
T30EC 002:005.408 JLINK_ReadReg(R15 (PC))
T30EC 002:005.420 - 0.016ms returns 0x20000000
T30EC 002:005.430 JLINK_ClrBPEx(BPHandle = 0x00000007)
T30EC 002:005.437 - 0.010ms returns 0x00
T30EC 002:005.447 JLINK_ReadReg(R0)
T30EC 002:005.454 - 0.014ms returns 0x00000000
T30EC 002:006.040 JLINK_WriteMem(0x20000180, 0x0400 Bytes, ...)
T30EC 002:006.054   Data:  18 BF 45 60 03 D1 2A 68 05 46 11 44 01 60 28 68 ...
T30EC 002:006.075    -- CPU_WriteMem(1024 bytes @ 0x20000180)
T30EC 002:012.570 - 6.549ms returns 0x400
T30EC 002:012.606 JLINK_WriteReg(R0, 0x08000400)
T30EC 002:012.619 - 0.017ms returns 0x00
T30EC 002:012.630 JLINK_WriteReg(R1, 0x00000400)
T30EC 002:012.638 - 0.011ms returns 0x00
T30EC 002:012.650 JLINK_WriteReg(R2, 0x20000180)
T30EC 002:012.657 - 0.011ms returns 0x00
T30EC 002:012.667 JLINK_WriteReg(R3, 0x00000000)
T30EC 002:012.674 - 0.010ms returns 0x00
T30EC 002:012.683 JLINK_WriteReg(R4, 0x00000000)
T30EC 002:012.690 - 0.010ms returns 0x00
T30EC 002:012.699 JLINK_WriteReg(R5, 0x00000000)
T30EC 002:012.706 - 0.010ms returns 0x00
T30EC 002:012.715 JLINK_WriteReg(R6, 0x00000000)
T30EC 002:012.722 - 0.010ms returns 0x00
T30EC 002:012.731 JLINK_WriteReg(R7, 0x00000000)
T30EC 002:012.738 - 0.010ms returns 0x00
T30EC 002:012.747 JLINK_WriteReg(R8, 0x00000000)
T30EC 002:012.754 - 0.010ms returns 0x00
T30EC 002:012.764 JLINK_WriteReg(R9, 0x2000017C)
T30EC 002:012.771 - 0.010ms returns 0x00
T30EC 002:012.780 JLINK_WriteReg(R10, 0x00000000)
T30EC 002:012.787 - 0.010ms returns 0x00
T30EC 002:012.796 JLINK_WriteReg(R11, 0x00000000)
T30EC 002:012.803 - 0.010ms returns 0x00
T30EC 002:012.812 JLINK_WriteReg(R12, 0x00000000)
T30EC 002:012.819 - 0.010ms returns 0x00
T30EC 002:012.829 JLINK_WriteReg(R13 (SP), 0x20001000)
T30EC 002:012.837 - 0.011ms returns 0x00
T30EC 002:012.846 JLINK_WriteReg(R14, 0x20000001)
T30EC 002:012.853 - 0.010ms returns 0x00
T30EC 002:012.862 JLINK_WriteReg(R15 (PC), 0x20000108)
T30EC 002:012.869 - 0.010ms returns 0x00
T30EC 002:012.879 JLINK_WriteReg(XPSR, 0x01000000)
T30EC 002:012.886 - 0.010ms returns 0x00
T30EC 002:012.895 JLINK_WriteReg(MSP, 0x20001000)
T30EC 002:012.902 - 0.010ms returns 0x00
T30EC 002:012.912 JLINK_WriteReg(PSP, 0x20001000)
T30EC 002:012.919 - 0.010ms returns 0x00
T30EC 002:012.928 JLINK_WriteReg(CFBP, 0x00000000)
T30EC 002:012.935 - 0.010ms returns 0x00
T30EC 002:012.946   JLINK_SetBPEx(Addr = 0x20000000, Type = 0xFFFFFFF2)
T30EC 002:012.957 - 0.015ms returns 0x00000008
T30EC 002:012.967 JLINK_Go()
T30EC 002:012.982    -- CPU_ReadMem(4 bytes @ 0xE0001000)
T30EC 002:017.973 - 5.023ms
T30EC 002:018.002 JLINK_IsHalted()
T30EC 002:019.120 - 1.138ms returns FALSE
T30EC 002:022.604 JLINK_IsHalted()
T30EC 002:026.742    -- CPU_ReadMem(2 bytes @ 0x20000000)
T30EC 002:028.269 - 5.698ms returns TRUE
T30EC 002:028.321 JLINK_ReadReg(R15 (PC))
T30EC 002:028.333 - 0.016ms returns 0x20000000
T30EC 002:028.343 JLINK_ClrBPEx(BPHandle = 0x00000008)
T30EC 002:028.374 - 0.034ms returns 0x00
T30EC 002:028.385 JLINK_ReadReg(R0)
T30EC 002:028.393 - 0.011ms returns 0x00000000
T30EC 002:029.014 JLINK_WriteMem(0x20000180, 0x0400 Bytes, ...)
T30EC 002:029.029   Data:  01 31 00 21 05 91 05 49 79 44 CD E9 03 10 11 46 ...
T30EC 002:029.050    -- CPU_WriteMem(1024 bytes @ 0x20000180)
T30EC 002:035.031 - 6.035ms returns 0x400
T30EC 002:035.067 JLINK_WriteReg(R0, 0x08000800)
T30EC 002:035.081 - 0.017ms returns 0x00
T30EC 002:035.090 JLINK_WriteReg(R1, 0x00000400)
T30EC 002:035.098 - 0.010ms returns 0x00
T30EC 002:035.107 JLINK_WriteReg(R2, 0x20000180)
T30EC 002:035.114 - 0.010ms returns 0x00
T30EC 002:035.125 JLINK_WriteReg(R3, 0x00000000)
T30EC 002:035.133 - 0.010ms returns 0x00
T30EC 002:035.142 JLINK_WriteReg(R4, 0x00000000)
T30EC 002:035.149 - 0.010ms returns 0x00
T30EC 002:035.158 JLINK_WriteReg(R5, 0x00000000)
T30EC 002:035.165 - 0.010ms returns 0x00
T30EC 002:035.174 JLINK_WriteReg(R6, 0x00000000)
T30EC 002:035.181 - 0.010ms returns 0x00
T30EC 002:035.190 JLINK_WriteReg(R7, 0x00000000)
T30EC 002:035.197 - 0.010ms returns 0x00
T30EC 002:035.206 JLINK_WriteReg(R8, 0x00000000)
T30EC 002:035.213 - 0.010ms returns 0x00
T30EC 002:035.223 JLINK_WriteReg(R9, 0x2000017C)
T30EC 002:035.230 - 0.010ms returns 0x00
T30EC 002:035.239 JLINK_WriteReg(R10, 0x00000000)
T30EC 002:035.246 - 0.013ms returns 0x00
T30EC 002:035.260 JLINK_WriteReg(R11, 0x00000000)
T30EC 002:035.267 - 0.010ms returns 0x00
T30EC 002:035.277 JLINK_WriteReg(R12, 0x00000000)
T30EC 002:035.284 - 0.010ms returns 0x00
T30EC 002:035.293 JLINK_WriteReg(R13 (SP), 0x20001000)
T30EC 002:035.300 - 0.011ms returns 0x00
T30EC 002:035.310 JLINK_WriteReg(R14, 0x20000001)
T30EC 002:035.317 - 0.010ms returns 0x00
T30EC 002:035.326 JLINK_WriteReg(R15 (PC), 0x20000108)
T30EC 002:035.333 - 0.010ms returns 0x00
T30EC 002:035.342 JLINK_WriteReg(XPSR, 0x01000000)
T30EC 002:035.349 - 0.010ms returns 0x00
T30EC 002:035.360 JLINK_WriteReg(MSP, 0x20001000)
T30EC 002:035.370 - 0.013ms returns 0x00
T30EC 002:035.380 JLINK_WriteReg(PSP, 0x20001000)
T30EC 002:035.387 - 0.010ms returns 0x00
T30EC 002:035.396 JLINK_WriteReg(CFBP, 0x00000000)
T30EC 002:035.403 - 0.010ms returns 0x00
T30EC 002:035.413   JLINK_SetBPEx(Addr = 0x20000000, Type = 0xFFFFFFF2)
T30EC 002:035.424 - 0.015ms returns 0x00000009
T30EC 002:035.434 JLINK_Go()
T30EC 002:035.449    -- CPU_ReadMem(4 bytes @ 0xE0001000)
T30EC 002:040.428 - 5.031ms
T30EC 002:040.496 JLINK_IsHalted()
T30EC 002:041.236 - 0.752ms returns FALSE
T30EC 002:045.581 JLINK_IsHalted()
T30EC 002:049.655    -- CPU_ReadMem(2 bytes @ 0x20000000)
T30EC 002:050.970 - 5.405ms returns TRUE
T30EC 002:050.999 JLINK_ReadReg(R15 (PC))
T30EC 002:051.011 - 0.016ms returns 0x20000000
T30EC 002:051.021 JLINK_ClrBPEx(BPHandle = 0x00000009)
T30EC 002:051.029 - 0.011ms returns 0x00
T30EC 002:051.038 JLINK_ReadReg(R0)
T30EC 002:051.046 - 0.010ms returns 0x00000000
T30EC 002:051.665 JLINK_WriteMem(0x20000180, 0x0400 Bytes, ...)
T30EC 002:051.680   Data:  02 90 7E E0 4A E0 65 E0 00 F0 A4 FA 03 F0 BE FD ...
T30EC 002:051.701    -- CPU_WriteMem(1024 bytes @ 0x20000180)
T30EC 002:058.166 - 6.524ms returns 0x400
T30EC 002:058.212 JLINK_WriteReg(R0, 0x08000C00)
T30EC 002:058.245 - 0.037ms returns 0x00
T30EC 002:058.256 JLINK_WriteReg(R1, 0x00000400)
T30EC 002:058.264 - 0.028ms returns 0x00
T30EC 002:058.290 JLINK_WriteReg(R2, 0x20000180)
T30EC 002:058.297 - 0.010ms returns 0x00
T30EC 002:058.308 JLINK_WriteReg(R3, 0x00000000)
T30EC 002:058.315 - 0.010ms returns 0x00
T30EC 002:058.344 JLINK_WriteReg(R4, 0x00000000)
T30EC 002:058.368 - 0.027ms returns 0x00
T30EC 002:058.379 JLINK_WriteReg(R5, 0x00000000)
T30EC 002:058.386 - 0.010ms returns 0x00
T30EC 002:058.397 JLINK_WriteReg(R6, 0x00000000)
T30EC 002:058.404 - 0.010ms returns 0x00
T30EC 002:058.415 JLINK_WriteReg(R7, 0x00000000)
T30EC 002:058.422 - 0.010ms returns 0x00
T30EC 002:058.433 JLINK_WriteReg(R8, 0x00000000)
T30EC 002:058.440 - 0.010ms returns 0x00
T30EC 002:058.451 JLINK_WriteReg(R9, 0x2000017C)
T30EC 002:058.458 - 0.010ms returns 0x00
T30EC 002:058.467 JLINK_WriteReg(R10, 0x00000000)
T30EC 002:058.474 - 0.010ms returns 0x00
T30EC 002:058.485 JLINK_WriteReg(R11, 0x00000000)
T30EC 002:058.492 - 0.010ms returns 0x00
T30EC 002:058.501 JLINK_WriteReg(R12, 0x00000000)
T30EC 002:058.508 - 0.010ms returns 0x00
T30EC 002:058.517 JLINK_WriteReg(R13 (SP), 0x20001000)
T30EC 002:058.525 - 0.011ms returns 0x00
T30EC 002:058.534 JLINK_WriteReg(R14, 0x20000001)
T30EC 002:058.541 - 0.010ms returns 0x00
T30EC 002:058.550 JLINK_WriteReg(R15 (PC), 0x20000108)
T30EC 002:058.557 - 0.010ms returns 0x00
T30EC 002:058.568 JLINK_WriteReg(XPSR, 0x01000000)
T30EC 002:058.575 - 0.010ms returns 0x00
T30EC 002:058.584 JLINK_WriteReg(MSP, 0x20001000)
T30EC 002:058.591 - 0.010ms returns 0x00
T30EC 002:058.600 JLINK_WriteReg(PSP, 0x20001000)
T30EC 002:058.607 - 0.010ms returns 0x00
T30EC 002:058.617 JLINK_WriteReg(CFBP, 0x00000000)
T30EC 002:058.624 - 0.010ms returns 0x00
T30EC 002:058.635   JLINK_SetBPEx(Addr = 0x20000000, Type = 0xFFFFFFF2)
T30EC 002:058.647 - 0.015ms returns 0x0000000A
T30EC 002:058.656 JLINK_Go()
T30EC 002:058.672    -- CPU_ReadMem(4 bytes @ 0xE0001000)
T30EC 002:063.884 - 5.244ms
T30EC 002:063.918 JLINK_IsHalted()
T30EC 002:064.758 - 0.866ms returns FALSE
T30EC 002:066.701 JLINK_IsHalted()
T30EC 002:068.032 - 1.351ms returns FALSE
T30EC 002:069.709 JLINK_IsHalted()
T30EC 002:074.302    -- CPU_ReadMem(2 bytes @ 0x20000000)
T30EC 002:075.731 - 6.040ms returns TRUE
T30EC 002:075.761 JLINK_ReadReg(R15 (PC))
T30EC 002:075.773 - 0.015ms returns 0x20000000
T30EC 002:075.783 JLINK_ClrBPEx(BPHandle = 0x0000000A)
T30EC 002:075.791 - 0.011ms returns 0x00
T30EC 002:075.801 JLINK_ReadReg(R0)
T30EC 002:075.808 - 0.011ms returns 0x00000000
T30EC 002:076.611 JLINK_WriteMem(0x20000180, 0x0400 Bytes, ...)
T30EC 002:076.628   Data:  00 0F 04 D0 2A E0 00 27 4F F0 25 0A F4 E7 DF F8 ...
T30EC 002:076.650    -- CPU_WriteMem(1024 bytes @ 0x20000180)
T30EC 002:082.668 - 6.073ms returns 0x400
T30EC 002:082.701 JLINK_WriteReg(R0, 0x08001000)
T30EC 002:082.713 - 0.016ms returns 0x00
T30EC 002:082.722 JLINK_WriteReg(R1, 0x00000400)
T30EC 002:082.729 - 0.010ms returns 0x00
T30EC 002:082.738 JLINK_WriteReg(R2, 0x20000180)
T30EC 002:082.744 - 0.009ms returns 0x00
T30EC 002:082.753 JLINK_WriteReg(R3, 0x00000000)
T30EC 002:082.760 - 0.009ms returns 0x00
T30EC 002:082.768 JLINK_WriteReg(R4, 0x00000000)
T30EC 002:082.775 - 0.009ms returns 0x00
T30EC 002:082.783 JLINK_WriteReg(R5, 0x00000000)
T30EC 002:082.790 - 0.009ms returns 0x00
T30EC 002:082.799 JLINK_WriteReg(R6, 0x00000000)
T30EC 002:082.805 - 0.009ms returns 0x00
T30EC 002:082.814 JLINK_WriteReg(R7, 0x00000000)
T30EC 002:082.820 - 0.009ms returns 0x00
T30EC 002:082.829 JLINK_WriteReg(R8, 0x00000000)
T30EC 002:082.835 - 0.009ms returns 0x00
T30EC 002:082.844 JLINK_WriteReg(R9, 0x2000017C)
T30EC 002:082.850 - 0.009ms returns 0x00
T30EC 002:082.859 JLINK_WriteReg(R10, 0x00000000)
T30EC 002:082.866 - 0.009ms returns 0x00
T30EC 002:082.874 JLINK_WriteReg(R11, 0x00000000)
T30EC 002:082.881 - 0.009ms returns 0x00
T30EC 002:082.890 JLINK_WriteReg(R12, 0x00000000)
T30EC 002:082.896 - 0.009ms returns 0x00
